; CANmatik ASC v1.0
date Wed Mar 11 18:18:57.000 2026
base hex  timestamps absolute
; adapter: 
; bitrate: 0
internal events logged
Begin Triggerblock Wed Mar 11 18:18:57.000 2026
   0.000000 1  7DF             Rx   d 8 02 01 0C 55 55 55 55 55
   0.002223 1  7E8             Rx   d 8 04 41 0C 00 00 00 00 00
   0.171564 1  7DF             Rx   d 8 02 01 0D 55 55 55 55 55
   0.182874 1  7E8             Rx   d 8 03 41 0D 00 00 00 00 00
   0.352102 1  7DF             Rx   d 8 02 01 05 55 55 55 55 55
   0.363102 1  7E8             Rx   d 8 03 41 05 51 00 00 00 00
   0.531488 1  7DF             Rx   d 8 02 01 0C 55 55 55 55 55
   0.550059 1  7E8             Rx   d 8 04 41 0C 00 00 00 00 00
   0.719232 1  7DF             Rx   d 8 02 01 0D 55 55 55 55 55
   0.731753 1  7E8             Rx   d 8 03 41 0D 00 00 00 00 00
   0.902196 1  7DF             Rx   d 8 02 01 05 55 55 55 55 55
   0.914052 1  7E8             Rx   d 8 03 41 05 51 00 00 00 00
   1.085358 1  7DF             Rx   d 8 02 01 0C 55 55 55 55 55
   1.086680 1  7E8             Rx   d 8 04 41 0C 00 00 00 00 00
   1.257673 1  7DF             Rx   d 8 02 01 0D 55 55 55 55 55
   1.270241 1  7E8             Rx   d 8 03 41 0D 00 00 00 00 00
   1.439277 1  7DF             Rx   d 8 02 01 05 55 55 55 55 55
   1.450570 1  7E8             Rx   d 8 03 41 05 51 00 00 00 00
   1.620619 1  7DF             Rx   d 8 02 01 0C 55 55 55 55 55
   1.632333 1  7E8             Rx   d 8 04 41 0C 00 00 00 00 00
   1.799807 1  7DF             Rx   d 8 02 01 0D 55 55 55 55 55
   1.802008 1  7E8             Rx   d 8 03 41 0D 00 00 00 00 00
   1.968299 1  7DF             Rx   d 8 02 01 05 55 55 55 55 55
   1.970545 1  7E8             Rx   d 8 03 41 05 51 00 00 00 00
   2.142285 1  7DF             Rx   d 8 02 01 0C 55 55 55 55 55
   2.152036 1  7E8             Rx   d 8 04 41 0C 00 00 00 00 00
   2.322791 1  7DF             Rx   d 8 02 01 0D 55 55 55 55 55
   2.332765 1  7E8             Rx   d 8 03 41 0D 00 00 00 00 00
   2.503617 1  7DF             Rx   d 8 02 01 05 55 55 55 55 55
   2.504903 1  7E8             Rx   d 8 03 41 05 51 00 00 00 00
   2.676190 1  7DF             Rx   d 8 02 01 0C 55 55 55 55 55
   2.690175 1  7E8             Rx   d 8 04 41 0C 00 00 00 00 00
   2.860751 1  7DF             Rx   d 8 02 01 0D 55 55 55 55 55
   2.871037 1  7E8             Rx   d 8 03 41 0D 00 00 00 00 00
   3.041929 1  7DF             Rx   d 8 02 01 05 55 55 55 55 55
   3.051720 1  7E8             Rx   d 8 03 41 05 51 00 00 00 00
   3.221317 1  7DF             Rx   d 8 02 01 0C 55 55 55 55 55
   3.239649 1  7E8             Rx   d 8 04 41 0C 00 00 00 00 00
   3.408148 1  7DF             Rx   d 8 02 01 0D 55 55 55 55 55
   3.410115 1  7E8             Rx   d 8 03 41 0D 00 00 00 00 00
   3.577361 1  7DF             Rx   d 8 02 01 05 55 55 55 55 55
   3.590384 1  7E8             Rx   d 8 03 41 05 51 00 00 00 00
   3.758092 1  7DF             Rx   d 8 02 01 0C 55 55 55 55 55
   3.759657 1  7E8             Rx   d 8 04 41 0C 00 00 00 00 00
   3.928912 1  7DF             Rx   d 8 02 01 0D 55 55 55 55 55
   3.940331 1  7E8             Rx   d 8 03 41 0D 00 00 00 00 00
   4.111134 1  7DF             Rx   d 8 02 01 05 55 55 55 55 55
   4.121301 1  7E8             Rx   d 8 03 41 05 51 00 00 00 00
   4.287797 1  7DF             Rx   d 8 02 01 0C 55 55 55 55 55
   4.291364 1  7E8             Rx   d 8 04 41 0C 00 00 00 00 00
   4.458771 1  7DF             Rx   d 8 02 01 0D 55 55 55 55 55
   4.471418 1  7E8             Rx   d 8 03 41 0D 00 00 00 00 00
   4.637664 1  7DF             Rx   d 8 02 01 05 55 55 55 55 55
   4.640597 1  7E8             Rx   d 8 03 41 05 51 00 00 00 00
   4.811366 1  7DF             Rx   d 8 02 01 0C 55 55 55 55 55
   4.821681 1  7E8             Rx   d 8 04 41 0C 00 00 00 00 00
   4.988908 1  7DF             Rx   d 8 02 01 0D 55 55 55 55 55
   4.991948 1  7E8             Rx   d 8 03 41 0D 00 00 00 00 00
   5.158133 1  7DF             Rx   d 8 02 01 05 55 55 55 55 55
   5.161165 1  7E8             Rx   d 8 03 41 05 51 00 00 00 00
   5.332613 1  7DF             Rx   d 8 02 01 0C 55 55 55 55 55
   5.341000 1  7E8             Rx   d 8 04 41 0C 00 00 00 00 00
   5.510135 1  7DF             Rx   d 8 02 01 0D 55 55 55 55 55
   5.530166 1  7E8             Rx   d 8 03 41 0D 00 00 00 00 00
   5.696208 1  7DF             Rx   d 8 02 01 05 55 55 55 55 55
   5.699909 1  7E8             Rx   d 8 03 41 05 51 00 00 00 00
   5.868636 1  7DF             Rx   d 8 02 01 0C 55 55 55 55 55
   5.880586 1  7E8             Rx   d 8 04 41 0C 00 00 00 00 00
   6.049162 1  7DF             Rx   d 8 02 01 0D 55 55 55 55 55
   6.061172 1  7E8             Rx   d 8 03 41 0D 00 00 00 00 00
   6.230839 1  7DF             Rx   d 8 02 01 05 55 55 55 55 55
   6.241656 1  7E8             Rx   d 8 03 41 05 51 00 00 00 00
   6.410005 1  7DF             Rx   d 8 02 01 0C 55 55 55 55 55
   6.429948 1  7E8             Rx   d 8 04 41 0C 00 00 00 00 00
   6.598632 1  7DF             Rx   d 8 02 01 0D 55 55 55 55 55
   6.611743 1  7E8             Rx   d 8 03 41 0D 00 00 00 00 00
   6.782689 1  7DF             Rx   d 8 02 01 05 55 55 55 55 55
   6.799674 1  7E8             Rx   d 8 03 41 05 51 00 00 00 00
   6.971583 1  7DF             Rx   d 8 02 01 0C 55 55 55 55 55
   6.980760 1  7E8             Rx   d 8 04 41 0C 00 00 00 00 00
   7.148260 1  7DF             Rx   d 8 02 01 0D 55 55 55 55 55
   7.149798 1  7E8             Rx   d 8 03 41 0D 00 00 00 00 00
   7.317372 1  7DF             Rx   d 8 02 01 05 55 55 55 55 55
   7.330323 1  7E8             Rx   d 8 03 41 05 51 00 00 00 00
   7.496834 1  7DF             Rx   d 8 02 01 0C 55 55 55 55 55
   7.500228 1  7E8             Rx   d 8 04 41 0C 00 00 00 00 00
   7.672160 1  7DF             Rx   d 8 02 01 0D 55 55 55 55 55
   7.680765 1  7E8             Rx   d 8 03 41 0D 00 00 00 00 00
   7.852120 1  7DF             Rx   d 8 02 01 05 55 55 55 55 55
   7.861344 1  7E8             Rx   d 8 03 41 05 51 00 00 00 00
   8.031836 1  7DF             Rx   d 8 02 01 0C 55 55 55 55 55
   8.049888 1  7E8             Rx   d 8 04 41 0C 00 00 00 00 00
   8.217295 1  7DF             Rx   d 8 02 01 0D 55 55 55 55 55
   8.219544 1  7E8             Rx   d 8 03 41 0D 00 00 00 00 00
   8.385983 1  7DF             Rx   d 8 02 01 05 55 55 55 55 55
   8.400529 1  7E8             Rx   d 8 03 41 05 51 00 00 00 00
   8.568793 1  7DF             Rx   d 8 02 01 0C 55 55 55 55 55
   8.580754 1  7E8             Rx   d 8 04 41 0C 00 00 00 00 00
   8.749734 1  7DF             Rx   d 8 02 01 0D 55 55 55 55 55
   8.761627 1  7E8             Rx   d 8 03 41 0D 00 00 00 00 00
   8.933575 1  7DF             Rx   d 8 02 01 05 55 55 55 55 55
   8.949756 1  7E8             Rx   d 8 03 41 05 51 00 00 00 00
   9.118056 1  7DF             Rx   d 8 02 01 0C 55 55 55 55 55
   9.131029 1  7E8             Rx   d 8 04 41 0C 1C 0F 00 00 00
   9.299821 1  7DF             Rx   d 8 02 01 0D 55 55 55 55 55
   9.312702 1  7E8             Rx   d 8 03 41 0D 00 00 00 00 00
   9.480277 1  7DF             Rx   d 8 02 01 05 55 55 55 55 55
   9.500103 1  7E8             Rx   d 8 03 41 05 51 00 00 00 00
   9.666558 1  7DF             Rx   d 8 02 01 0C 55 55 55 55 55
   9.668029 1  7E8             Rx   d 8 04 41 0C 1A 9D 00 00 00
   9.836392 1  7DF             Rx   d 8 02 01 0D 55 55 55 55 55
   9.849869 1  7E8             Rx   d 8 03 41 0D 00 00 00 00 00
   10.020319 1  7DF             Rx   d 8 02 01 05 55 55 55 55 55
   10.030955 1  7E8             Rx   d 8 03 41 05 51 00 00 00 00
   10.197856 1  7DF             Rx   d 8 02 01 0C 55 55 55 55 55
   10.219260 1  7E8             Rx   d 8 04 41 0C 12 C0 00 00 00
   10.386426 1  7DF             Rx   d 8 02 01 0D 55 55 55 55 55
   10.400403 1  7E8             Rx   d 8 03 41 0D 00 00 00 00 00
   10.567209 1  7DF             Rx   d 8 02 01 05 55 55 55 55 55
   10.569287 1  7E8             Rx   d 8 03 41 05 51 00 00 00 00
   10.739840 1  7DF             Rx   d 8 02 01 0C 55 55 55 55 55
   10.749541 1  7E8             Rx   d 8 04 41 0C 12 C8 00 00 00
   10.918048 1  7DF             Rx   d 8 02 01 0D 55 55 55 55 55
   10.933863 1  7E8             Rx   d 8 03 41 0D 00 00 00 00 00
   11.103096 1  7DF             Rx   d 8 02 01 05 55 55 55 55 55
   11.104535 1  7E8             Rx   d 8 03 41 05 51 00 00 00 00
   11.270656 1  7DF             Rx   d 8 02 01 0C 55 55 55 55 55
   11.288831 1  7E8             Rx   d 8 04 41 0C 13 C0 00 00 00
   11.459290 1  7DF             Rx   d 8 02 01 0D 55 55 55 55 55
   11.469083 1  7E8             Rx   d 8 03 41 0D 00 00 00 00 00
   11.639578 1  7DF             Rx   d 8 02 01 05 55 55 55 55 55
   11.649801 1  7E8             Rx   d 8 03 41 05 51 00 00 00 00
   11.816578 1  7DF             Rx   d 8 02 01 0C 55 55 55 55 55
   11.819649 1  7E8             Rx   d 8 04 41 0C 13 FF 00 00 00
   11.986720 1  7DF             Rx   d 8 02 01 0D 55 55 55 55 55
   11.988868 1  7E8             Rx   d 8 03 41 0D 00 00 00 00 00
   12.160435 1  7DF             Rx   d 8 02 01 05 55 55 55 55 55
   12.169851 1  7E8             Rx   d 8 03 41 05 51 00 00 00 00
   12.336402 1  7DF             Rx   d 8 02 01 0C 55 55 55 55 55
   12.338828 1  7E8             Rx   d 8 04 41 0C 13 61 00 00 00
   12.506076 1  7DF             Rx   d 8 02 01 0D 55 55 55 55 55
   12.509277 1  7E8             Rx   d 8 03 41 0D 00 00 00 00 00
   12.680458 1  7DF             Rx   d 8 02 01 05 55 55 55 55 55
   12.689581 1  7E8             Rx   d 8 03 41 05 51 00 00 00 00
   12.859008 1  7DF             Rx   d 8 02 01 0C 55 55 55 55 55
   12.870531 1  7E8             Rx   d 8 04 41 0C 12 A5 00 00 00
   13.037528 1  7DF             Rx   d 8 02 01 0D 55 55 55 55 55
   13.058540 1  7E8             Rx   d 8 03 41 0D 00 00 00 00 00
   13.228983 1  7DF             Rx   d 8 02 01 05 55 55 55 55 55
   13.239549 1  7E8             Rx   d 8 03 41 05 51 00 00 00 00
   13.407416 1  7DF             Rx   d 8 02 01 0C 55 55 55 55 55
   13.419802 1  7E8             Rx   d 8 04 41 0C 12 BC 00 00 00
   13.591512 1  7DF             Rx   d 8 02 01 0D 55 55 55 55 55
   13.608768 1  7E8             Rx   d 8 03 41 0D 00 00 00 00 00
   13.776683 1  7DF             Rx   d 8 02 01 05 55 55 55 55 55
   13.789579 1  7E8             Rx   d 8 03 41 05 51 00 00 00 00
   13.957179 1  7DF             Rx   d 8 02 01 0C 55 55 55 55 55
   13.970069 1  7E8             Rx   d 8 04 41 0C 12 28 00 00 00
   14.137577 1  7DF             Rx   d 8 02 01 0D 55 55 55 55 55
   14.158173 1  7E8             Rx   d 8 03 41 0D 00 00 00 00 00
   14.326731 1  7DF             Rx   d 8 02 01 05 55 55 55 55 55
   14.339016 1  7E8             Rx   d 8 03 41 05 51 00 00 00 00
   14.509492 1  7DF             Rx   d 8 02 01 0C 55 55 55 55 55
   14.519788 1  7E8             Rx   d 8 04 41 0C 11 CC 00 00 00
   14.687531 1  7DF             Rx   d 8 02 01 0D 55 55 55 55 55
   14.708198 1  7E8             Rx   d 8 03 41 0D 00 00 00 00 00
   14.875318 1  7DF             Rx   d 8 02 01 05 55 55 55 55 55
   14.877509 1  7E8             Rx   d 8 03 41 05 51 00 00 00 00
   15.043954 1  7DF             Rx   d 8 02 01 0C 55 55 55 55 55
   15.058107 1  7E8             Rx   d 8 04 41 0C 11 4C 00 00 00
   15.227324 1  7DF             Rx   d 8 02 01 0D 55 55 55 55 55
   15.239352 1  7E8             Rx   d 8 03 41 0D 00 00 00 00 00
   15.410607 1  7DF             Rx   d 8 02 01 05 55 55 55 55 55
   15.420110 1  7E8             Rx   d 8 03 41 05 51 00 00 00 00
   15.587651 1  7DF             Rx   d 8 02 01 0C 55 55 55 55 55
   15.589969 1  7E8             Rx   d 8 04 41 0C 11 11 00 00 00
   15.759422 1  7DF             Rx   d 8 02 01 0D 55 55 55 55 55
   15.777690 1  7E8             Rx   d 8 03 41 0D 00 00 00 00 00
   15.948371 1  7DF             Rx   d 8 02 01 05 55 55 55 55 55
   15.958029 1  7E8             Rx   d 8 03 41 05 51 00 00 00 00
   16.129648 1  7DF             Rx   d 8 02 01 0C 55 55 55 55 55
   16.139654 1  7E8             Rx   d 8 04 41 0C 10 B8 00 00 00
   16.308631 1  7DF             Rx   d 8 02 01 0D 55 55 55 55 55
   16.320288 1  7E8             Rx   d 8 03 41 0D 00 00 00 00 00
   16.488897 1  7DF             Rx   d 8 02 01 05 55 55 55 55 55
   16.490368 1  7E8             Rx   d 8 03 41 05 51 00 00 00 00
   16.657558 1  7DF             Rx   d 8 02 01 0C 55 55 55 55 55
   16.659166 1  7E8             Rx   d 8 04 41 0C 0F FA 00 00 00
   16.828712 1  7DF             Rx   d 8 02 01 0D 55 55 55 55 55
   16.839980 1  7E8             Rx   d 8 03 41 0D 00 00 00 00 00
   17.007820 1  7DF             Rx   d 8 02 01 05 55 55 55 55 55
   17.027306 1  7E8             Rx   d 8 03 41 05 51 00 00 00 00
   17.197482 1  7DF             Rx   d 8 02 01 0C 55 55 55 55 55
   17.209364 1  7E8             Rx   d 8 04 41 0C 0F 38 00 00 00
   17.375648 1  7DF             Rx   d 8 02 01 0D 55 55 55 55 55
   17.379117 1  7E8             Rx   d 8 03 41 0D 00 00 00 00 00
   17.547784 1  7DF             Rx   d 8 02 01 05 55 55 55 55 55
   17.559647 1  7E8             Rx   d 8 03 41 05 51 00 00 00 00
   17.726974 1  7DF             Rx   d 8 02 01 0C 55 55 55 55 55
   17.729335 1  7E8             Rx   d 8 04 41 0C 0E 47 00 00 00
   17.895385 1  7DF             Rx   d 8 02 01 0D 55 55 55 55 55
   17.899236 1  7E8             Rx   d 8 03 41 0D 00 00 00 00 00
   18.068725 1  7DF             Rx   d 8 02 01 05 55 55 55 55 55
   18.079898 1  7E8             Rx   d 8 03 41 05 51 00 00 00 00
   18.246633 1  7DF             Rx   d 8 02 01 0C 55 55 55 55 55
   18.249225 1  7E8             Rx   d 8 04 41 0C 0E 1E 00 00 00
   18.420769 1  7DF             Rx   d 8 02 01 0D 55 55 55 55 55
   18.429639 1  7E8             Rx   d 8 03 41 0D 00 00 00 00 00
   18.597739 1  7DF             Rx   d 8 02 01 05 55 55 55 55 55
   18.616293 1  7E8             Rx   d 8 03 41 05 51 00 00 00 00
   18.782590 1  7DF             Rx   d 8 02 01 0C 55 55 55 55 55
   18.799098 1  7E8             Rx   d 8 04 41 0C 0E 5F 00 00 00
   18.967364 1  7DF             Rx   d 8 02 01 0D 55 55 55 55 55
   18.979969 1  7E8             Rx   d 8 03 41 0D 00 00 00 00 00
   19.146074 1  7DF             Rx   d 8 02 01 05 55 55 55 55 55
   19.149327 1  7E8             Rx   d 8 03 41 05 51 00 00 00 00
   19.317909 1  7DF             Rx   d 8 02 01 0C 55 55 55 55 55
   19.329844 1  7E8             Rx   d 8 04 41 0C 0D EF 00 00 00
   19.501409 1  7DF             Rx   d 8 02 01 0D 55 55 55 55 55
   19.516154 1  7E8             Rx   d 8 03 41 0D 00 00 00 00 00
   19.684334 1  7DF             Rx   d 8 02 01 05 55 55 55 55 55
   19.685667 1  7E8             Rx   d 8 03 41 05 51 00 00 00 00
   19.854954 1  7DF             Rx   d 8 02 01 0C 55 55 55 55 55
   19.866392 1  7E8             Rx   d 8 04 41 0C 11 ED 00 00 00
   20.036697 1  7DF             Rx   d 8 02 01 0D 55 55 55 55 55
   20.049538 1  7E8             Rx   d 8 03 41 0D 00 00 00 00 00
   20.217441 1  7DF             Rx   d 8 02 01 05 55 55 55 55 55
   20.235781 1  7E8             Rx   d 8 03 41 05 51 00 00 00 00
   20.405053 1  7DF             Rx   d 8 02 01 0C 55 55 55 55 55
   20.416112 1  7E8             Rx   d 8 04 41 0C 1A A4 00 00 00
   20.585227 1  7DF             Rx   d 8 02 01 0D 55 55 55 55 55
   20.599680 1  7E8             Rx   d 8 03 41 0D 00 00 00 00 00
   20.769105 1  7DF             Rx   d 8 02 01 05 55 55 55 55 55
   20.780795 1  7E8             Rx   d 8 03 41 05 51 00 00 00 00
   20.950774 1  7DF             Rx   d 8 02 01 0C 55 55 55 55 55
   20.952328 1  7E8             Rx   d 8 04 41 0C 19 01 00 00 00
   21.121321 1  7DF             Rx   d 8 02 01 0D 55 55 55 55 55
   21.135529 1  7E8             Rx   d 8 03 41 0D 00 00 00 00 00
   21.303930 1  7DF             Rx   d 8 02 01 05 55 55 55 55 55
   21.305759 1  7E8             Rx   d 8 03 41 05 51 00 00 00 00
   21.475059 1  7DF             Rx   d 8 02 01 0C 55 55 55 55 55
   21.485379 1  7E8             Rx   d 8 04 41 0C 15 60 00 00 00
   21.654103 1  7DF             Rx   d 8 02 01 0D 55 55 55 55 55
   21.668739 1  7E8             Rx   d 8 03 41 0D 00 00 00 00 00
   21.834858 1  7DF             Rx   d 8 02 01 05 55 55 55 55 55
   21.838303 1  7E8             Rx   d 8 03 41 05 51 00 00 00 00
   22.004359 1  7DF             Rx   d 8 02 01 0C 55 55 55 55 55
   22.019342 1  7E8             Rx   d 8 04 41 0C 18 A1 00 00 00
   22.190364 1  7DF             Rx   d 8 02 01 0D 55 55 55 55 55
   22.205888 1  7E8             Rx   d 8 03 41 0D 00 00 00 00 00
   22.374061 1  7DF             Rx   d 8 02 01 05 55 55 55 55 55
   22.385559 1  7E8             Rx   d 8 03 41 05 51 00 00 00 00
   22.554742 1  7DF             Rx   d 8 02 01 0C 55 55 55 55 55
   22.569473 1  7E8             Rx   d 8 04 41 0C 17 B1 00 00 00
   22.737458 1  7DF             Rx   d 8 02 01 0D 55 55 55 55 55
   22.754916 1  7E8             Rx   d 8 03 41 0D 00 00 00 00 00
   22.926680 1  7DF             Rx   d 8 02 01 05 55 55 55 55 55
   22.938372 1  7E8             Rx   d 8 03 41 05 51 00 00 00 00
   23.110378 1  7DF             Rx   d 8 02 01 0C 55 55 55 55 55
   23.119299 1  7E8             Rx   d 8 04 41 0C 17 37 00 00 00
   23.288926 1  7DF             Rx   d 8 02 01 0D 55 55 55 55 55
   23.305502 1  7E8             Rx   d 8 03 41 0D 00 00 00 00 00
   23.473837 1  7DF             Rx   d 8 02 01 05 55 55 55 55 55
   23.485042 1  7E8             Rx   d 8 03 41 05 51 00 00 00 00
   23.653843 1  7DF             Rx   d 8 02 01 0C 55 55 55 55 55
   23.669147 1  7E8             Rx   d 8 04 41 0C 17 86 00 00 00
   23.835694 1  7DF             Rx   d 8 02 01 0D 55 55 55 55 55
   23.838385 1  7E8             Rx   d 8 03 41 0D 00 00 00 00 00
   24.006297 1  7DF             Rx   d 8 02 01 05 55 55 55 55 55
   24.019277 1  7E8             Rx   d 8 03 41 05 51 00 00 00 00
   24.190882 1  7DF             Rx   d 8 02 01 0C 55 55 55 55 55
   24.205416 1  7E8             Rx   d 8 04 41 0C 17 54 00 00 00
   24.376325 1  7DF             Rx   d 8 02 01 0D 55 55 55 55 55
   24.388581 1  7E8             Rx   d 8 03 41 0D 00 00 00 00 00
   24.558890 1  7DF             Rx   d 8 02 01 05 55 55 55 55 55
   24.569151 1  7E8             Rx   d 8 03 41 05 51 00 00 00 00
   24.736866 1  7DF             Rx   d 8 02 01 0C 55 55 55 55 55
   24.754745 1  7E8             Rx   d 8 04 41 0C 17 5A 00 00 00
   24.925704 1  7DF             Rx   d 8 02 01 0D 55 55 55 55 55
   24.938432 1  7E8             Rx   d 8 03 41 0D 00 00 00 00 00
   25.107297 1  7DF             Rx   d 8 02 01 05 55 55 55 55 55
   25.119250 1  7E8             Rx   d 8 03 41 05 51 00 00 00 00
   25.290400 1  7DF             Rx   d 8 02 01 0C 55 55 55 55 55
   25.305124 1  7E8             Rx   d 8 04 41 0C 17 31 00 00 00
   25.472600 1  7DF             Rx   d 8 02 01 0D 55 55 55 55 55
   25.488453 1  7E8             Rx   d 8 03 41 0D 00 00 00 00 00
   25.654859 1  7DF             Rx   d 8 02 01 05 55 55 55 55 55
   25.669009 1  7E8             Rx   d 8 03 41 05 51 00 00 00 00
   25.837958 1  7DF             Rx   d 8 02 01 0C 55 55 55 55 55
   25.854127 1  7E8             Rx   d 8 04 41 0C 17 1A 00 00 00
   26.025539 1  7DF             Rx   d 8 02 01 0D 55 55 55 55 55
   26.038423 1  7E8             Rx   d 8 03 41 0D 00 00 00 00 00
   26.205964 1  7DF             Rx   d 8 02 01 05 55 55 55 55 55
   26.218994 1  7E8             Rx   d 8 03 41 05 51 00 00 00 00
   26.386391 1  7DF             Rx   d 8 02 01 0C 55 55 55 55 55
   26.388653 1  7E8             Rx   d 8 04 41 0C 16 D1 00 00 00
   26.560131 1  7DF             Rx   d 8 02 01 0D 55 55 55 55 55
   26.569302 1  7E8             Rx   d 8 03 41 0D 00 00 00 00 00
   26.737121 1  7DF             Rx   d 8 02 01 05 55 55 55 55 55
   26.754212 1  7E8             Rx   d 8 03 41 05 51 00 00 00 00
   26.923963 1  7DF             Rx   d 8 02 01 0C 55 55 55 55 55
   26.938397 1  7E8             Rx   d 8 04 41 0C 16 78 00 00 00
   27.108652 1  7DF             Rx   d 8 02 01 0D 55 55 55 55 55
   27.119389 1  7E8             Rx   d 8 03 41 0D 00 00 00 00 00
   27.285593 1  7DF             Rx   d 8 02 01 05 55 55 55 55 55
   27.289026 1  7E8             Rx   d 8 03 41 05 51 00 00 00 00
   27.456730 1  7DF             Rx   d 8 02 01 0C 55 55 55 55 55
   27.458065 1  7E8             Rx   d 8 04 41 0C 16 C4 00 00 00
   27.624267 1  7DF             Rx   d 8 02 01 0D 55 55 55 55 55
   27.638639 1  7E8             Rx   d 8 03 41 0D 00 00 00 00 00
   27.805162 1  7DF             Rx   d 8 02 01 05 55 55 55 55 55
   27.808129 1  7E8             Rx   d 8 03 41 05 51 00 00 00 00
   27.977415 1  7DF             Rx   d 8 02 01 0C 55 55 55 55 55
   27.993450 1  7E8             Rx   d 8 04 41 0C 16 61 00 00 00
   28.159968 1  7DF             Rx   d 8 02 01 0D 55 55 55 55 55
   28.178254 1  7E8             Rx   d 8 03 41 0D 00 00 00 00 00
   28.349620 1  7DF             Rx   d 8 02 01 05 55 55 55 55 55
   28.358335 1  7E8             Rx   d 8 03 41 05 51 00 00 00 00
   28.529105 1  7DF             Rx   d 8 02 01 0C 55 55 55 55 55
   28.539117 1  7E8             Rx   d 8 04 41 0C 16 B0 00 00 00
   28.706456 1  7DF             Rx   d 8 02 01 0D 55 55 55 55 55
   28.708371 1  7E8             Rx   d 8 03 41 0D 00 00 00 00 00
   28.880035 1  7DF             Rx   d 8 02 01 05 55 55 55 55 55
   28.893352 1  7E8             Rx   d 8 03 41 05 51 00 00 00 00
   29.061613 1  7DF             Rx   d 8 02 01 0C 55 55 55 55 55
   29.078799 1  7E8             Rx   d 8 04 41 0C 16 8C 00 00 00
   29.245898 1  7DF             Rx   d 8 02 01 0D 55 55 55 55 55
   29.247166 1  7E8             Rx   d 8 03 41 0D 00 00 00 00 00
   29.414832 1  7DF             Rx   d 8 02 01 05 55 55 55 55 55
   29.427751 1  7E8             Rx   d 8 03 41 05 51 00 00 00 00
   29.595864 1  7DF             Rx   d 8 02 01 0C 55 55 55 55 55
   29.598165 1  7E8             Rx   d 8 04 41 0C 16 4B 00 00 00
   29.767122 1  7DF             Rx   d 8 02 01 0D 55 55 55 55 55
   29.778505 1  7E8             Rx   d 8 03 41 0D 00 00 00 00 00
   29.947861 1  7DF             Rx   d 8 02 01 05 55 55 55 55 55
   29.959011 1  7E8             Rx   d 8 03 41 05 52 00 00 00 00
   30.128730 1  7DF             Rx   d 8 02 01 0C 55 55 55 55 55
   30.147892 1  7E8             Rx   d 8 04 41 0C 15 C3 00 00 00
   30.319624 1  7DF             Rx   d 8 02 01 0D 55 55 55 55 55
   30.327632 1  7E8             Rx   d 8 03 41 0D 00 00 00 00 00
   30.495740 1  7DF             Rx   d 8 02 01 05 55 55 55 55 55
   30.498222 1  7E8             Rx   d 8 03 41 05 52 00 00 00 00
   30.668833 1  7DF             Rx   d 8 02 01 0C 55 55 55 55 55
   30.678404 1  7E8             Rx   d 8 04 41 0C 15 D0 00 00 00
   30.846242 1  7DF             Rx   d 8 02 01 0D 55 55 55 55 55
   30.848659 1  7E8             Rx   d 8 03 41 0D 00 00 00 00 00
   31.017535 1  7DF             Rx   d 8 02 01 05 55 55 55 55 55
   31.028554 1  7E8             Rx   d 8 03 41 05 52 00 00 00 00
   31.196902 1  7DF             Rx   d 8 02 01 0C 55 55 55 55 55
   31.199518 1  7E8             Rx   d 8 04 41 0C 15 D9 00 00 00
   31.370028 1  7DF             Rx   d 8 02 01 0D 55 55 55 55 55
   31.378718 1  7E8             Rx   d 8 03 41 0D 00 00 00 00 00
   31.550213 1  7DF             Rx   d 8 02 01 05 55 55 55 55 55
   31.562061 1  7E8             Rx   d 8 03 41 05 52 00 00 00 00
   31.731075 1  7DF             Rx   d 8 02 01 0C 55 55 55 55 55
   31.748685 1  7E8             Rx   d 8 04 41 0C 15 CE 00 00 00
   31.919416 1  7DF             Rx   d 8 02 01 0D 55 55 55 55 55
   31.928888 1  7E8             Rx   d 8 03 41 0D 00 00 00 00 00
   32.098919 1  7DF             Rx   d 8 02 01 05 55 55 55 55 55
   32.101776 1  7E8             Rx   d 8 03 41 05 52 00 00 00 00
   32.271609 1  7DF             Rx   d 8 02 01 0C 55 55 55 55 55
   32.281872 1  7E8             Rx   d 8 04 41 0C 15 A0 00 00 00
   32.448354 1  7DF             Rx   d 8 02 01 0D 55 55 55 55 55
   32.450329 1  7E8             Rx   d 8 03 41 0D 00 00 00 00 00
   32.619411 1  7DF             Rx   d 8 02 01 05 55 55 55 55 55
   32.631663 1  7E8             Rx   d 8 03 41 05 52 00 00 00 00
   32.803447 1  7DF             Rx   d 8 02 01 0C 55 55 55 55 55
   32.818091 1  7E8             Rx   d 8 04 41 0C 15 54 00 00 00
   32.988457 1  7DF             Rx   d 8 02 01 0D 55 55 55 55 55
   33.001786 1  7E8             Rx   d 8 03 41 0D 00 00 00 00 00
   33.170550 1  7DF             Rx   d 8 02 01 05 55 55 55 55 55
   33.181686 1  7E8             Rx   d 8 03 41 05 52 00 00 00 00
   33.352427 1  7DF             Rx   d 8 02 01 0C 55 55 55 55 55
   33.367762 1  7E8             Rx   d 8 04 41 0C 15 56 00 00 00
   33.539367 1  7DF             Rx   d 8 02 01 0D 55 55 55 55 55
   33.550912 1  7E8             Rx   d 8 03 41 0D 00 00 00 00 00
   33.719367 1  7DF             Rx   d 8 02 01 05 55 55 55 55 55
   33.731262 1  7E8             Rx   d 8 03 41 05 52 00 00 00 00
   33.902241 1  7DF             Rx   d 8 02 01 0C 55 55 55 55 55
   33.918076 1  7E8             Rx   d 8 04 41 0C 15 2A 00 00 00
   34.084712 1  7DF             Rx   d 8 02 01 0D 55 55 55 55 55
   34.087536 1  7E8             Rx   d 8 03 41 0D 00 00 00 00 00
   34.258127 1  7DF             Rx   d 8 02 01 05 55 55 55 55 55
   34.268261 1  7E8             Rx   d 8 03 41 05 52 00 00 00 00
   34.438930 1  7DF             Rx   d 8 02 01 0C 55 55 55 55 55
   34.451273 1  7E8             Rx   d 8 04 41 0C 14 F7 00 00 00
   34.622922 1  7DF             Rx   d 8 02 01 0D 55 55 55 55 55
   34.631153 1  7E8             Rx   d 8 03 41 0D 00 00 00 00 00
   34.799903 1  7DF             Rx   d 8 02 01 05 55 55 55 55 55
   34.818238 1  7E8             Rx   d 8 03 41 05 52 00 00 00 00
   34.987227 1  7DF             Rx   d 8 02 01 0C 55 55 55 55 55
   35.001352 1  7E8             Rx   d 8 04 41 0C 15 05 00 00 00
   35.169598 1  7DF             Rx   d 8 02 01 0D 55 55 55 55 55
   35.187639 1  7E8             Rx   d 8 03 41 0D 00 00 00 00 00
   35.356811 1  7DF             Rx   d 8 02 01 05 55 55 55 55 55
   35.367792 1  7E8             Rx   d 8 03 41 05 52 00 00 00 00
   35.539132 1  7DF             Rx   d 8 02 01 0C 55 55 55 55 55
   35.550785 1  7E8             Rx   d 8 04 41 0C 14 F6 00 00 00
   35.719776 1  7DF             Rx   d 8 02 01 0D 55 55 55 55 55
   35.730922 1  7E8             Rx   d 8 03 41 0D 00 00 00 00 00
   35.899696 1  7DF             Rx   d 8 02 01 05 55 55 55 55 55
   35.918022 1  7E8             Rx   d 8 03 41 05 52 00 00 00 00
   36.089418 1  7DF             Rx   d 8 02 01 0C 55 55 55 55 55
   36.100835 1  7E8             Rx   d 8 04 41 0C 14 A4 00 00 00
   36.267646 1  7DF             Rx   d 8 02 01 0D 55 55 55 55 55
   36.269272 1  7E8             Rx   d 8 03 41 0D 00 00 00 00 00
   36.437425 1  7DF             Rx   d 8 02 01 05 55 55 55 55 55
   36.450609 1  7E8             Rx   d 8 03 41 05 53 00 00 00 00
   36.620360 1  7DF             Rx   d 8 02 01 0C 55 55 55 55 55
   36.637366 1  7E8             Rx   d 8 04 41 0C 14 7B 00 00 00
   36.805307 1  7DF             Rx   d 8 02 01 0D 55 55 55 55 55
   36.818110 1  7E8             Rx   d 8 03 41 0D 00 00 00 00 00
   36.986401 1  7DF             Rx   d 8 02 01 05 55 55 55 55 55
   37.000670 1  7E8             Rx   d 8 03 41 05 53 00 00 00 00
   37.167660 1  7DF             Rx   d 8 02 01 0C 55 55 55 55 55
   37.170176 1  7E8             Rx   d 8 04 41 0C 14 7B 00 00 00
   37.340379 1  7DF             Rx   d 8 02 01 0D 55 55 55 55 55
   37.350645 1  7E8             Rx   d 8 03 41 0D 00 00 00 00 00
   37.517691 1  7DF             Rx   d 8 02 01 05 55 55 55 55 55
   37.537515 1  7E8             Rx   d 8 03 41 05 53 00 00 00 00
   37.705260 1  7DF             Rx   d 8 02 01 0C 55 55 55 55 55
   37.718134 1  7E8             Rx   d 8 04 41 0C 14 45 00 00 00
   37.889739 1  7DF             Rx   d 8 02 01 0D 55 55 55 55 55
   37.900548 1  7E8             Rx   d 8 03 41 0D 00 00 00 00 00
   38.066621 1  7DF             Rx   d 8 02 01 05 55 55 55 55 55
   38.070027 1  7E8             Rx   d 8 03 41 05 53 00 00 00 00
   38.237046 1  7DF             Rx   d 8 02 01 0C 55 55 55 55 55
   38.257098 1  7E8             Rx   d 8 04 41 0C 14 10 00 00 00
   38.426101 1  7DF             Rx   d 8 02 01 0D 55 55 55 55 55
   38.437707 1  7E8             Rx   d 8 03 41 0D 00 00 00 00 00
   38.605059 1  7DF             Rx   d 8 02 01 05 55 55 55 55 55
   38.618350 1  7E8             Rx   d 8 03 41 05 53 00 00 00 00
   38.786110 1  7DF             Rx   d 8 02 01 0C 55 55 55 55 55
   38.788337 1  7E8             Rx   d 8 04 41 0C 14 0D 00 00 00
   38.958415 1  7DF             Rx   d 8 02 01 0D 55 55 55 55 55
   38.969669 1  7E8             Rx   d 8 03 41 0D 00 00 00 00 00
   39.139377 1  7DF             Rx   d 8 02 01 05 55 55 55 55 55
   39.157480 1  7E8             Rx   d 8 03 41 05 53 00 00 00 00
   39.323578 1  7DF             Rx   d 8 02 01 0C 55 55 55 55 55
   39.337567 1  7E8             Rx   d 8 04 41 0C 13 FF 00 00 00
   39.505227 1  7DF             Rx   d 8 02 01 0D 55 55 55 55 55
   39.506639 1  7E8             Rx   d 8 03 41 0D 00 00 00 00 00
   39.677993 1  7DF             Rx   d 8 02 01 05 55 55 55 55 55
   39.688986 1  7E8             Rx   d 8 03 41 05 53 00 00 00 00
   39.858700 1  7DF             Rx   d 8 02 01 0C 55 55 55 55 55
   39.873892 1  7E8             Rx   d 8 04 41 0C 14 26 00 00 00
   40.044130 1  7DF             Rx   d 8 02 01 0D 55 55 55 55 55
   40.057625 1  7E8             Rx   d 8 03 41 0D 00 00 00 00 00
   40.224546 1  7DF             Rx   d 8 02 01 05 55 55 55 55 55
   40.238148 1  7E8             Rx   d 8 03 41 05 53 00 00 00 00
   40.406466 1  7DF             Rx   d 8 02 01 0C 55 55 55 55 55
   40.418991 1  7E8             Rx   d 8 04 41 0C 13 C8 00 00 00
   40.585993 1  7DF             Rx   d 8 02 01 0D 55 55 55 55 55
   40.589173 1  7E8             Rx   d 8 03 41 0D 00 00 00 00 00
   40.758475 1  7DF             Rx   d 8 02 01 05 55 55 55 55 55
   40.987578 1  7DF             Rx   d 8 02 01 0C 55 55 55 55 55
   40.996819 1  7E8             Rx   d 8 04 41 0C 13 F5 00 00 00
   41.164890 1  7DF             Rx   d 8 02 01 0D 55 55 55 55 55
   41.177215 1  7E8             Rx   d 8 03 41 0D 00 00 00 00 00
   41.348333 1  7DF             Rx   d 8 02 01 05 55 55 55 55 55
   41.357649 1  7E8             Rx   d 8 03 41 05 53 00 00 00 00
   41.527959 1  7DF             Rx   d 8 02 01 0C 55 55 55 55 55
   41.538638 1  7E8             Rx   d 8 04 41 0C 13 6F 00 00 00
   41.706808 1  7DF             Rx   d 8 02 01 0D 55 55 55 55 55
   41.723418 1  7E8             Rx   d 8 03 41 0D 00 00 00 00 00
   41.892501 1  7DF             Rx   d 8 02 01 05 55 55 55 55 55
   41.897249 1  7E8             Rx   d 8 03 41 05 53 00 00 00 00
   42.065037 1  7DF             Rx   d 8 02 01 0C 55 55 55 55 55
   42.077246 1  7E8             Rx   d 8 04 41 0C 13 8A 00 00 00
   42.245976 1  7DF             Rx   d 8 02 01 0D 55 55 55 55 55
   42.258013 1  7E8             Rx   d 8 03 41 0D 00 00 00 00 00
   42.424197 1  7DF             Rx   d 8 02 01 05 55 55 55 55 55
   42.427112 1  7E8             Rx   d 8 03 41 05 53 00 00 00 00
   42.594108 1  7DF             Rx   d 8 02 01 0C 55 55 55 55 55
   42.597342 1  7E8             Rx   d 8 04 41 0C 13 83 00 00 00
   42.765726 1  7DF             Rx   d 8 02 01 0D 55 55 55 55 55
   42.777598 1  7E8             Rx   d 8 03 41 0D 00 00 00 00 00
   42.947513 1  7DF             Rx   d 8 02 01 05 55 55 55 55 55
   42.958646 1  7E8             Rx   d 8 03 41 05 54 00 00 00 00
   43.126529 1  7DF             Rx   d 8 02 01 0C 55 55 55 55 55
   43.147439 1  7E8             Rx   d 8 04 41 0C 13 43 00 00 00
   43.315847 1  7DF             Rx   d 8 02 01 0D 55 55 55 55 55
   43.327075 1  7E8             Rx   d 8 03 41 0D 00 00 00 00 00
   43.496167 1  7DF             Rx   d 8 02 01 05 55 55 55 55 55
   43.507977 1  7E8             Rx   d 8 03 41 05 54 00 00 00 00
   43.676350 1  7DF             Rx   d 8 02 01 0C 55 55 55 55 55
   43.697418 1  7E8             Rx   d 8 04 41 0C 13 26 00 00 00
   43.865845 1  7DF             Rx   d 8 02 01 0D 55 55 55 55 55
   43.877657 1  7E8             Rx   d 8 03 41 0D 00 00 00 00 00
   44.048100 1  7DF             Rx   d 8 02 01 05 55 55 55 55 55
   44.058750 1  7E8             Rx   d 8 03 41 05 54 00 00 00 00
   44.226411 1  7DF             Rx   d 8 02 01 0C 55 55 55 55 55
   44.247203 1  7E8             Rx   d 8 04 41 0C 13 24 00 00 00
   44.413464 1  7DF             Rx   d 8 02 01 0D 55 55 55 55 55
   44.426978 1  7E8             Rx   d 8 03 41 0D 00 00 00 00 00
   44.597130 1  7DF             Rx   d 8 02 01 05 55 55 55 55 55
   44.608171 1  7E8             Rx   d 8 03 41 05 54 00 00 00 00
   44.778445 1  7DF             Rx   d 8 02 01 0C 55 55 55 55 55
   44.797377 1  7E8             Rx   d 8 04 41 0C 12 E7 00 00 00
   44.968149 1  7DF             Rx   d 8 02 01 0D 55 55 55 55 55
   44.977376 1  7E8             Rx   d 8 03 41 0D 00 00 00 00 00
   45.144407 1  7DF             Rx   d 8 02 01 05 55 55 55 55 55
   45.147383 1  7E8             Rx   d 8 03 41 05 54 00 00 00 00
   45.315384 1  7DF             Rx   d 8 02 01 0C 55 55 55 55 55
   45.317050 1  7E8             Rx   d 8 04 41 0C 12 D3 00 00 00
   45.484954 1  7DF             Rx   d 8 02 01 0D 55 55 55 55 55
   45.497860 1  7E8             Rx   d 8 03 41 0D 00 00 00 00 00
   45.668030 1  7DF             Rx   d 8 02 01 05 55 55 55 55 55
   45.677764 1  7E8             Rx   d 8 03 41 05 54 00 00 00 00
   45.844389 1  7DF             Rx   d 8 02 01 0C 55 55 55 55 55
   45.848024 1  7E8             Rx   d 8 04 41 0C 12 BF 00 00 00
   46.018538 1  7DF             Rx   d 8 02 01 0D 55 55 55 55 55
   46.027998 1  7E8             Rx   d 8 03 41 0D 00 00 00 00 00
   46.199532 1  7DF             Rx   d 8 02 01 05 55 55 55 55 55
   46.216916 1  7E8             Rx   d 8 03 41 05 54 00 00 00 00
   46.383915 1  7DF             Rx   d 8 02 01 0C 55 55 55 55 55
   46.397981 1  7E8             Rx   d 8 04 41 0C 12 A2 00 00 00
   46.567042 1  7DF             Rx   d 8 02 01 0D 55 55 55 55 55
   46.789574 1  7DF             Rx   d 8 02 01 05 55 55 55 55 55
   47.011970 1  7DF             Rx   d 8 02 01 0C 55 55 55 55 55
   47.229095 1  7DF             Rx   d 8 02 01 0D 55 55 55 55 55
   47.450476 1  7DF             Rx   d 8 02 01 05 55 55 55 55 55
   47.671194 1  7DF             Rx   d 8 02 01 0C 55 55 55 55 55
   47.893677 1  7DF             Rx   d 8 02 01 0D 55 55 55 55 55
   48.115942 1  7DF             Rx   d 8 02 01 05 55 55 55 55 55
   48.335753 1  7DF             Rx   d 8 02 01 0C 55 55 55 55 55
   48.557885 1  7DF             Rx   d 8 02 01 0D 55 55 55 55 55
   48.778779 1  7DF             Rx   d 8 02 01 05 55 55 55 55 55
   48.996821 1  7DF             Rx   d 8 02 01 0C 55 55 55 55 55
   49.216134 1  7DF             Rx   d 8 02 01 0D 55 55 55 55 55
   49.437624 1  7DF             Rx   d 8 02 01 05 55 55 55 55 55
   49.658531 1  7DF             Rx   d 8 02 01 0C 55 55 55 55 55
   49.659908 1  7E8             Rx   d 8 01 44 00 00 00 00 00 00
   49.829304 1  7DF             Rx   d 8 02 01 0D 55 55 55 55 55
   49.830616 1  7E8             Rx   d 8 04 41 0C 12 A9 00 00 00
   49.999469 1  7DF             Rx   d 8 02 01 05 55 55 55 55 55
   50.001102 1  7E8             Rx   d 8 03 41 05 55 00 00 00 00
   50.170570 1  7DF             Rx   d 8 02 01 0C 55 55 55 55 55
   50.172224 1  7E8             Rx   d 8 04 41 0C 12 AC 00 00 00
   50.340062 1  7DF             Rx   d 8 02 01 0D 55 55 55 55 55
   50.355789 1  7E8             Rx   d 8 03 41 0D 00 00 00 00 00
   50.525935 1  7DF             Rx   d 8 02 01 05 55 55 55 55 55
   50.536597 1  7E8             Rx   d 8 03 41 05 55 00 00 00 00
   50.705510 1  7DF             Rx   d 8 02 01 0C 55 55 55 55 55
   50.717531 1  7E8             Rx   d 8 04 41 0C 12 B2 00 00 00
   50.887171 1  7DF             Rx   d 8 02 01 0D 55 55 55 55 55
   50.888772 1  7E8             Rx   d 8 03 41 0D 00 00 00 00 00
   51.057156 1  7DF             Rx   d 8 02 01 05 55 55 55 55 55
   51.075218 1  7E8             Rx   d 8 03 41 05 55 00 00 00 00
   51.246891 1  7DF             Rx   d 8 02 01 0C 55 55 55 55 55
   51.256718 1  7E8             Rx   d 8 04 41 0C 12 87 00 00 00
   51.426705 1  7DF             Rx   d 8 02 01 0D 55 55 55 55 55
   51.436788 1  7E8             Rx   d 8 03 41 0D 00 00 00 00 00
   51.605690 1  7DF             Rx   d 8 02 01 05 55 55 55 55 55
   51.617495 1  7E8             Rx   d 8 03 41 05 55 00 00 00 00
   51.785160 1  7DF             Rx   d 8 02 01 0C 55 55 55 55 55
   51.794792 1  7E8             Rx   d 8 04 41 0C 12 6B 00 00 00
   51.961277 1  7DF             Rx   d 8 02 01 0D 55 55 55 55 55
   51.975147 1  7E8             Rx   d 8 03 41 0D 00 00 00 00 00
   52.142880 1  7DF             Rx   d 8 02 01 05 55 55 55 55 55
   52.144832 1  7E8             Rx   d 8 03 41 05 55 00 00 00 00
   52.313563 1  7DF             Rx   d 8 02 01 0C 55 55 55 55 55
   52.320142 1  7E8             Rx   d 8 04 41 0C 12 65 00 00 00
   52.486600 1  7DF             Rx   d 8 02 01 0D 55 55 55 55 55
   52.495122 1  7E8             Rx   d 8 03 41 0D 00 00 00 00 00
   52.665399 1  7DF             Rx   d 8 02 01 05 55 55 55 55 55
   52.676055 1  7E8             Rx   d 8 03 41 05 55 00 00 00 00
   52.842792 1  7DF             Rx   d 8 02 01 0C 55 55 55 55 55
   52.845183 1  7E8             Rx   d 8 04 41 0C 12 72 00 00 00
   53.013749 1  7DF             Rx   d 8 02 01 0D 55 55 55 55 55
   53.025956 1  7E8             Rx   d 8 03 41 0D 00 00 00 00 00
   53.194162 1  7DF             Rx   d 8 02 01 05 55 55 55 55 55
   53.207043 1  7E8             Rx   d 8 03 41 05 55 00 00 00 00
   53.373316 1  7DF             Rx   d 8 02 01 0C 55 55 55 55 55
   53.376459 1  7E8             Rx   d 8 04 41 0C 12 55 00 00 00
   53.543903 1  7DF             Rx   d 8 02 01 0D 55 55 55 55 55
   53.546124 1  7E8             Rx   d 8 03 41 0D 00 00 00 00 00
   53.716520 1  7DF             Rx   d 8 02 01 05 55 55 55 55 55
   53.726383 1  7E8             Rx   d 8 03 41 05 55 00 00 00 00
   53.897744 1  7DF             Rx   d 8 02 01 0C 55 55 55 55 55
   53.914509 1  7E8             Rx   d 8 04 41 0C 12 4B 00 00 00
   54.083179 1  7DF             Rx   d 8 02 01 0D 55 55 55 55 55
   54.095841 1  7E8             Rx   d 8 03 41 0D 00 00 00 00 00
   54.263683 1  7DF             Rx   d 8 02 01 05 55 55 55 55 55
   54.265803 1  7E8             Rx   d 8 03 41 05 55 00 00 00 00
   54.436543 1  7DF             Rx   d 8 02 01 0C 55 55 55 55 55
   54.445880 1  7E8             Rx   d 8 04 41 0C 12 2B 00 00 00
   54.612323 1  7DF             Rx   d 8 02 01 0D 55 55 55 55 55
   54.615854 1  7E8             Rx   d 8 03 41 0D 00 00 00 00 00
   54.784478 1  7DF             Rx   d 8 02 01 05 55 55 55 55 55
   54.795939 1  7E8             Rx   d 8 03 41 05 55 00 00 00 00
   54.963202 1  7DF             Rx   d 8 02 01 0C 55 55 55 55 55
   54.966515 1  7E8             Rx   d 8 04 41 0C 12 32 00 00 00
   55.137499 1  7DF             Rx   d 8 02 01 0D 55 55 55 55 55
   55.146944 1  7E8             Rx   d 8 03 41 0D 00 00 00 00 00
   55.317433 1  7DF             Rx   d 8 02 01 05 55 55 55 55 55
   55.333703 1  7E8             Rx   d 8 03 41 05 55 00 00 00 00
   55.500671 1  7DF             Rx   d 8 02 01 0C 55 55 55 55 55
   55.516106 1  7E8             Rx   d 8 04 41 0C 11 C9 00 00 00
   55.684031 1  7DF             Rx   d 8 02 01 0D 55 55 55 55 55
   55.693721 1  7E8             Rx   d 8 03 41 0D 00 00 00 00 00
   55.863433 1  7DF             Rx   d 8 02 01 05 55 55 55 55 55
   55.874002 1  7E8             Rx   d 8 03 41 05 55 00 00 00 00
   56.042972 1  7DF             Rx   d 8 02 01 0C 55 55 55 55 55
   56.056217 1  7E8             Rx   d 8 04 41 0C 12 01 00 00 00
   56.226796 1  7DF             Rx   d 8 02 01 0D 55 55 55 55 55
   56.236968 1  7E8             Rx   d 8 03 41 0D 00 00 00 00 00
   56.404118 1  7DF             Rx   d 8 02 01 05 55 55 55 55 55
   56.405683 1  7E8             Rx   d 8 03 41 05 56 00 00 00 00
   56.572607 1  7DF             Rx   d 8 02 01 0C 55 55 55 55 55
   56.575715 1  7E8             Rx   d 8 04 41 0C 11 CC 00 00 00
   56.744171 1  7DF             Rx   d 8 02 01 0D 55 55 55 55 55
   56.756639 1  7E8             Rx   d 8 03 41 0D 00 00 00 00 00
   56.925615 1  7DF             Rx   d 8 02 01 05 55 55 55 55 55
   56.943259 1  7E8             Rx   d 8 03 41 05 56 00 00 00 00
   57.111200 1  7DF             Rx   d 8 02 01 0C 55 55 55 55 55
   57.112638 1  7E8             Rx   d 8 04 41 0C 11 E5 00 00 00
   57.281817 1  7DF             Rx   d 8 02 01 0D 55 55 55 55 55
   57.294414 1  7E8             Rx   d 8 03 41 0D 00 00 00 00 00
   57.462163 1  7DF             Rx   d 8 02 01 05 55 55 55 55 55
   57.475718 1  7E8             Rx   d 8 03 41 05 56 00 00 00 00
   57.646164 1  7DF             Rx   d 8 02 01 0C 55 55 55 55 55
   57.656867 1  7E8             Rx   d 8 04 41 0C 11 C8 00 00 00
   57.826158 1  7DF             Rx   d 8 02 01 0D 55 55 55 55 55
   57.843214 1  7E8             Rx   d 8 03 41 0D 00 00 00 00 00
   58.012296 1  7DF             Rx   d 8 02 01 05 55 55 55 55 55
   58.025436 1  7E8             Rx   d 8 03 41 05 56 00 00 00 00
   58.194608 1  7DF             Rx   d 8 02 01 0C 55 55 55 55 55
   58.206545 1  7E8             Rx   d 8 04 41 0C 11 B0 00 00 00
   58.375844 1  7DF             Rx   d 8 02 01 0D 55 55 55 55 55
   58.393281 1  7E8             Rx   d 8 03 41 0D 00 00 00 00 00
   58.563477 1  7DF             Rx   d 8 02 01 05 55 55 55 55 55
   58.575986 1  7E8             Rx   d 8 03 41 05 56 00 00 00 00
   58.744322 1  7DF             Rx   d 8 02 01 0C 55 55 55 55 55
   58.756707 1  7E8             Rx   d 8 04 41 0C 11 B1 00 00 00
   58.924628 1  7DF             Rx   d 8 02 01 0D 55 55 55 55 55
   58.942993 1  7E8             Rx   d 8 03 41 0D 00 00 00 00 00
   59.114222 1  7DF             Rx   d 8 02 01 05 55 55 55 55 55
   59.125245 1  7E8             Rx   d 8 03 41 05 56 00 00 00 00
   59.291419 1  7DF             Rx   d 8 02 01 0C 55 55 55 55 55
   59.306145 1  7E8             Rx   d 8 04 41 0C 11 77 00 00 00
   59.476986 1  7DF             Rx   d 8 02 01 0D 55 55 55 55 55
   59.492923 1  7E8             Rx   d 8 03 41 0D 00 00 00 00 00
   59.663510 1  7DF             Rx   d 8 02 01 05 55 55 55 55 55
   59.675855 1  7E8             Rx   d 8 03 41 05 56 00 00 00 00
   59.843968 1  7DF             Rx   d 8 02 01 0C 55 55 55 55 55
   59.856913 1  7E8             Rx   d 8 04 41 0C 11 0E 00 00 00
   60.028659 1  7DF             Rx   d 8 02 01 0D 55 55 55 55 55
   60.042762 1  7E8             Rx   d 8 03 41 0D 00 00 00 00 00
   60.212439 1  7DF             Rx   d 8 02 01 05 55 55 55 55 55
   60.225346 1  7E8             Rx   d 8 03 41 05 56 00 00 00 00
   60.397304 1  7DF             Rx   d 8 02 01 0C 55 55 55 55 55
   60.405867 1  7E8             Rx   d 8 04 41 0C 10 F7 00 00 00
   60.573525 1  7DF             Rx   d 8 02 01 0D 55 55 55 55 55
   60.576237 1  7E8             Rx   d 8 03 41 0D 00 00 00 00 00
   60.743035 1  7DF             Rx   d 8 02 01 05 55 55 55 55 55
   60.744336 1  7E8             Rx   d 8 03 41 05 56 00 00 00 00
   60.911309 1  7DF             Rx   d 8 02 01 0C 55 55 55 55 55
   60.913697 1  7E8             Rx   d 8 04 41 0C 10 E5 00 00 00
   61.083703 1  7DF             Rx   d 8 02 01 0D 55 55 55 55 55
   61.094937 1  7E8             Rx   d 8 03 41 0D 00 00 00 00 00
   61.265162 1  7DF             Rx   d 8 02 01 05 55 55 55 55 55
   61.277312 1  7E8             Rx   d 8 03 41 05 56 00 00 00 00
   61.446433 1  7DF             Rx   d 8 02 01 0C 55 55 55 55 55
   61.462028 1  7E8             Rx   d 8 04 41 0C 10 E5 00 00 00
   61.631357 1  7DF             Rx   d 8 02 01 0D 55 55 55 55 55
   61.645075 1  7E8             Rx   d 8 03 41 0D 00 00 00 00 00
   61.813099 1  7DF             Rx   d 8 02 01 05 55 55 55 55 55
   61.814927 1  7E8             Rx   d 8 03 41 05 56 00 00 00 00
   61.984050 1  7DF             Rx   d 8 02 01 0C 55 55 55 55 55
   61.995423 1  7E8             Rx   d 8 04 41 0C 11 8A 00 00 00
   62.161509 1  7DF             Rx   d 8 02 01 0D 55 55 55 55 55
   62.166213 1  7E8             Rx   d 8 03 41 0D 00 00 00 00 00
   62.332827 1  7DF             Rx   d 8 02 01 05 55 55 55 55 55
   62.345649 1  7E8             Rx   d 8 03 41 05 56 00 00 00 00
   62.516243 1  7DF             Rx   d 8 02 01 0C 55 55 55 55 55
   62.531250 1  7E8             Rx   d 8 04 41 0C 11 0E 00 00 00
   62.698206 1  7DF             Rx   d 8 02 01 0D 55 55 55 55 55
   62.715252 1  7E8             Rx   d 8 03 41 0D 00 00 00 00 00
   62.882510 1  7DF             Rx   d 8 02 01 05 55 55 55 55 55
   62.883856 1  7E8             Rx   d 8 03 41 05 56 00 00 00 00
   63.050620 1  7DF             Rx   d 8 02 01 0C 55 55 55 55 55
   63.066141 1  7E8             Rx   d 8 04 41 0C 0F DB 00 00 00
   63.236924 1  7DF             Rx   d 8 02 01 0D 55 55 55 55 55
   63.250987 1  7E8             Rx   d 8 03 41 0D 00 00 00 00 00
   63.419388 1  7DF             Rx   d 8 02 01 05 55 55 55 55 55
   63.431353 1  7E8             Rx   d 8 03 41 05 57 00 00 00 00
   63.597712 1  7DF             Rx   d 8 02 01 0C 55 55 55 55 55
   63.615319 1  7E8             Rx   d 8 04 41 0C 10 15 00 00 00
   63.784479 1  7DF             Rx   d 8 02 01 0D 55 55 55 55 55
   63.795756 1  7E8             Rx   d 8 03 41 0D 00 00 00 00 00
   63.965214 1  7DF             Rx   d 8 02 01 05 55 55 55 55 55
   63.981350 1  7E8             Rx   d 8 03 41 05 57 00 00 00 00
   64.152688 1  7DF             Rx   d 8 02 01 0C 55 55 55 55 55
   64.166028 1  7E8             Rx   d 8 04 41 0C 0F A5 00 00 00
   64.335563 1  7DF             Rx   d 8 02 01 0D 55 55 55 55 55
   64.346116 1  7E8             Rx   d 8 03 41 0D 00 00 00 00 00
   64.515033 1  7DF             Rx   d 8 02 01 05 55 55 55 55 55
   64.531062 1  7E8             Rx   d 8 03 41 05 57 00 00 00 00
   64.698683 1  7DF             Rx   d 8 02 01 0C 55 55 55 55 55
   64.715313 1  7E8             Rx   d 8 04 41 0C 0F 71 00 00 00
   64.883413 1  7DF             Rx   d 8 02 01 0D 55 55 55 55 55
   64.885516 1  7E8             Rx   d 8 03 41 0D 00 00 00 00 00
   65.056327 1  7DF             Rx   d 8 02 01 05 55 55 55 55 55
   65.066309 1  7E8             Rx   d 8 03 41 05 57 00 00 00 00
   65.232873 1  7DF             Rx   d 8 02 01 0C 55 55 55 55 55
   65.235394 1  7E8             Rx   d 8 04 41 0C 0F 20 00 00 00
   65.402157 1  7DF             Rx   d 8 02 01 0D 55 55 55 55 55
   65.415785 1  7E8             Rx   d 8 03 41 0D 00 00 00 00 00
   65.586932 1  7DF             Rx   d 8 02 01 05 55 55 55 55 55
   65.595862 1  7E8             Rx   d 8 03 41 05 57 00 00 00 00
   65.764977 1  7DF             Rx   d 8 02 01 0C 55 55 55 55 55
   65.770008 1  7E8             Rx   d 8 04 41 0C 0E EA 00 00 00
   65.938071 1  7DF             Rx   d 8 02 01 0D 55 55 55 55 55
   65.954458 1  7E8             Rx   d 8 03 41 0D 00 00 00 00 00
   66.123492 1  7DF             Rx   d 8 02 01 05 55 55 55 55 55
   66.135613 1  7E8             Rx   d 8 03 41 05 57 00 00 00 00
   66.304581 1  7DF             Rx   d 8 02 01 0C 55 55 55 55 55
   66.315835 1  7E8             Rx   d 8 04 41 0C 0E B1 00 00 00
   66.485174 1  7DF             Rx   d 8 02 01 0D 55 55 55 55 55
   66.496261 1  7E8             Rx   d 8 03 41 0D 00 00 00 00 00
   66.663634 1  7DF             Rx   d 8 02 01 05 55 55 55 55 55
   66.670249 1  7E8             Rx   d 8 03 41 05 57 00 00 00 00
   66.837871 1  7DF             Rx   d 8 02 01 0C 55 55 55 55 55
   66.854803 1  7E8             Rx   d 8 04 41 0C 0E C8 00 00 00
   67.021089 1  7DF             Rx   d 8 02 01 0D 55 55 55 55 55
   67.035563 1  7E8             Rx   d 8 03 41 0D 00 00 00 00 00
   67.204561 1  7DF             Rx   d 8 02 01 05 55 55 55 55 55
   67.216282 1  7E8             Rx   d 8 03 41 05 57 00 00 00 00
   67.385129 1  7DF             Rx   d 8 02 01 0C 55 55 55 55 55
   67.386532 1  7E8             Rx   d 8 04 41 0C 0E BD 00 00 00
   67.554422 1  7DF             Rx   d 8 02 01 0D 55 55 55 55 55
   67.570120 1  7E8             Rx   d 8 03 41 0D 00 00 00 00 00
   67.740351 1  7DF             Rx   d 8 02 01 05 55 55 55 55 55
   67.755637 1  7E8             Rx   d 8 03 41 05 57 00 00 00 00
   67.924884 1  7DF             Rx   d 8 02 01 0C 55 55 55 55 55
   67.935761 1  7E8             Rx   d 8 04 41 0C 0E 9B 00 00 00
   68.104087 1  7DF             Rx   d 8 02 01 0D 55 55 55 55 55
   68.116337 1  7E8             Rx   d 8 03 41 0D 00 00 00 00 00
   68.282687 1  7DF             Rx   d 8 02 01 05 55 55 55 55 55
   68.289661 1  7E8             Rx   d 8 03 41 05 57 00 00 00 00
   68.458412 1  7DF             Rx   d 8 02 01 0C 55 55 55 55 55
   68.471428 1  7E8             Rx   d 8 04 41 0C 0E C4 00 00 00
   68.640056 1  7DF             Rx   d 8 02 01 0D 55 55 55 55 55
   68.655315 1  7E8             Rx   d 8 03 41 0D 00 00 00 00 00
   68.823081 1  7DF             Rx   d 8 02 01 05 55 55 55 55 55
   68.836143 1  7E8             Rx   d 8 03 41 05 57 00 00 00 00
   69.003513 1  7DF             Rx   d 8 02 01 0C 55 55 55 55 55
   69.005226 1  7E8             Rx   d 8 04 41 0C 0E B1 00 00 00
   69.172146 1  7DF             Rx   d 8 02 01 0D 55 55 55 55 55
   69.175407 1  7E8             Rx   d 8 03 41 0D 00 00 00 00 00
   69.345534 1  7DF             Rx   d 8 02 01 05 55 55 55 55 55
   69.355855 1  7E8             Rx   d 8 03 41 05 57 00 00 00 00
   69.524133 1  7DF             Rx   d 8 02 01 0C 55 55 55 55 55
   69.539110 1  7E8             Rx   d 8 04 41 0C 0E AE 00 00 00
   69.710595 1  7DF             Rx   d 8 02 01 0D 55 55 55 55 55
   69.719296 1  7E8             Rx   d 8 03 41 0D 00 00 00 00 00
   69.886277 1  7DF             Rx   d 8 02 01 05 55 55 55 55 55
   69.889999 1  7E8             Rx   d 8 03 41 05 57 00 00 00 00
   70.056741 1  7DF             Rx   d 8 02 01 0C 55 55 55 55 55
   70.059101 1  7E8             Rx   d 8 04 41 0C 0E C5 00 00 00
   70.230997 1  7DF             Rx   d 8 02 01 0D 55 55 55 55 55
   70.243950 1  7E8             Rx   d 8 03 41 0D 00 00 00 00 00
   70.414912 1  7DF             Rx   d 8 02 01 05 55 55 55 55 55
   70.425010 1  7E8             Rx   d 8 03 41 05 57 00 00 00 00
   70.594428 1  7DF             Rx   d 8 02 01 0C 55 55 55 55 55
   70.608598 1  7E8             Rx   d 8 04 41 0C 0E D3 00 00 00
   70.776767 1  7DF             Rx   d 8 02 01 0D 55 55 55 55 55
   70.778323 1  7E8             Rx   d 8 03 41 0D 00 00 00 00 00
   70.947382 1  7DF             Rx   d 8 02 01 05 55 55 55 55 55
   70.963426 1  7E8             Rx   d 8 03 41 05 57 00 00 00 00
   71.132094 1  7DF             Rx   d 8 02 01 0C 55 55 55 55 55
   71.144809 1  7E8             Rx   d 8 04 41 0C 0E AD 00 00 00
   71.314008 1  7DF             Rx   d 8 02 01 0D 55 55 55 55 55
   71.325211 1  7E8             Rx   d 8 03 41 0D 00 00 00 00 00
   71.492537 1  7DF             Rx   d 8 02 01 05 55 55 55 55 55
   71.494062 1  7E8             Rx   d 8 03 41 05 57 00 00 00 00
   71.660221 1  7DF             Rx   d 8 02 01 0C 55 55 55 55 55
   71.663863 1  7E8             Rx   d 8 04 41 0C 0E DF 00 00 00
   71.834319 1  7DF             Rx   d 8 02 01 0D 55 55 55 55 55
   71.845261 1  7E8             Rx   d 8 03 41 0D 00 00 00 00 00
   72.015170 1  7DF             Rx   d 8 02 01 05 55 55 55 55 55
   72.028541 1  7E8             Rx   d 8 03 41 05 57 00 00 00 00
   72.197744 1  7DF             Rx   d 8 02 01 0C 55 55 55 55 55
   72.213731 1  7E8             Rx   d 8 04 41 0C 0E AF 00 00 00
   72.381141 1  7DF             Rx   d 8 02 01 0D 55 55 55 55 55
   72.382454 1  7E8             Rx   d 8 03 41 0D 00 00 00 00 00
   72.548520 1  7DF             Rx   d 8 02 01 05 55 55 55 55 55
   72.564802 1  7E8             Rx   d 8 03 41 05 57 00 00 00 00
   72.734212 1  7DF             Rx   d 8 02 01 0C 55 55 55 55 55
   72.745410 1  7E8             Rx   d 8 04 41 0C 0E D4 00 00 00
   72.911898 1  7DF             Rx   d 8 02 01 0D 55 55 55 55 55
   72.914662 1  7E8             Rx   d 8 03 41 0D 00 00 00 00 00
   73.082735 1  7DF             Rx   d 8 02 01 05 55 55 55 55 55
   73.085122 1  7E8             Rx   d 8 03 41 05 58 00 00 00 00
   73.254991 1  7DF             Rx   d 8 02 01 0C 55 55 55 55 55
   73.267505 1  7E8             Rx   d 8 04 41 0C 0E C8 00 00 00
   73.434766 1  7DF             Rx   d 8 02 01 0D 55 55 55 55 55
   73.447872 1  7E8             Rx   d 8 03 41 0D 00 00 00 00 00
   73.614706 1  7DF             Rx   d 8 02 01 05 55 55 55 55 55
   73.634481 1  7E8             Rx   d 8 03 41 05 58 00 00 00 00
   73.805381 1  7DF             Rx   d 8 02 01 0C 55 55 55 55 55
   73.815033 1  7E8             Rx   d 8 04 41 0C 0E BC 00 00 00
   73.985716 1  7DF             Rx   d 8 02 01 0D 55 55 55 55 55
   73.995608 1  7E8             Rx   d 8 03 41 0D 00 00 00 00 00
   74.165540 1  7DF             Rx   d 8 02 01 05 55 55 55 55 55
   74.167649 1  7E8             Rx   d 8 03 41 05 58 00 00 00 00
   74.338323 1  7DF             Rx   d 8 02 01 0C 55 55 55 55 55
   74.347998 1  7E8             Rx   d 8 04 41 0C 0E CE 00 00 00
   74.516011 1  7DF             Rx   d 8 02 01 0D 55 55 55 55 55
   74.534820 1  7E8             Rx   d 8 03 41 0D 00 00 00 00 00
   74.703393 1  7DF             Rx   d 8 02 01 05 55 55 55 55 55
   74.715005 1  7E8             Rx   d 8 03 41 05 58 00 00 00 00
   74.882702 1  7DF             Rx   d 8 02 01 0C 55 55 55 55 55
   74.885868 1  7E8             Rx   d 8 04 41 0C 0E D8 00 00 00
   75.052783 1  7DF             Rx   d 8 02 01 0D 55 55 55 55 55
   75.054977 1  7E8             Rx   d 8 03 41 0D 00 00 00 00 00
   75.225447 1  7DF             Rx   d 8 02 01 05 55 55 55 55 55
   75.235603 1  7E8             Rx   d 8 03 41 05 58 00 00 00 00
   75.403026 1  7DF             Rx   d 8 02 01 0C 55 55 55 55 55
   75.415615 1  7E8             Rx   d 8 04 41 0C 0E BC 00 00 00
   75.585043 1  7DF             Rx   d 8 02 01 0D 55 55 55 55 55
   75.587161 1  7E8             Rx   d 8 03 41 0D 00 00 00 00 00
   75.757536 1  7DF             Rx   d 8 02 01 05 55 55 55 55 55
   75.774418 1  7E8             Rx   d 8 03 41 05 58 00 00 00 00
   75.944795 1  7DF             Rx   d 8 02 01 0C 55 55 55 55 55
   75.954774 1  7E8             Rx   d 8 04 41 0C 0E B0 00 00 00
   76.122632 1  7DF             Rx   d 8 02 01 0D 55 55 55 55 55
   76.136507 1  7E8             Rx   d 8 03 41 0D 00 00 00 00 00
   76.306694 1  7DF             Rx   d 8 02 01 05 55 55 55 55 55
   76.315673 1  7E8             Rx   d 8 03 41 05 58 00 00 00 00
   76.486254 1  7DF             Rx   d 8 02 01 0C 55 55 55 55 55
   76.503219 1  7E8             Rx   d 8 04 41 0C 0E A1 00 00 00
   76.673760 1  7DF             Rx   d 8 02 01 0D 55 55 55 55 55
   76.686690 1  7E8             Rx   d 8 03 41 0D 00 00 00 00 00
   76.854181 1  7DF             Rx   d 8 02 01 05 55 55 55 55 55
   76.874227 1  7E8             Rx   d 8 03 41 05 58 00 00 00 00
   77.045427 1  7DF             Rx   d 8 02 01 0C 55 55 55 55 55
   77.054929 1  7E8             Rx   d 8 04 41 0C 0E 9B 00 00 00
   77.222078 1  7DF             Rx   d 8 02 01 0D 55 55 55 55 55
   77.236221 1  7E8             Rx   d 8 03 41 0D 00 00 00 00 00
   77.403118 1  7DF             Rx   d 8 02 01 05 55 55 55 55 55
   77.415443 1  7E8             Rx   d 8 03 41 05 58 00 00 00 00
   77.583497 1  7DF             Rx   d 8 02 01 0C 55 55 55 55 55
   77.586983 1  7E8             Rx   d 8 04 41 0C 0E B3 00 00 00
   77.753799 1  7DF             Rx   d 8 02 01 0D 55 55 55 55 55
   77.755893 1  7E8             Rx   d 8 03 41 0D 00 00 00 00 00
   77.924017 1  7DF             Rx   d 8 02 01 05 55 55 55 55 55
   77.936542 1  7E8             Rx   d 8 03 41 05 58 00 00 00 00
   78.105218 1  7DF             Rx   d 8 02 01 0C 55 55 55 55 55
   78.123192 1  7E8             Rx   d 8 04 41 0C 0E B8 00 00 00
   78.294254 1  7DF             Rx   d 8 02 01 0D 55 55 55 55 55
   78.304482 1  7E8             Rx   d 8 03 41 0D 00 00 00 00 00
   78.471844 1  7DF             Rx   d 8 02 01 05 55 55 55 55 55
   78.474753 1  7E8             Rx   d 8 03 41 05 58 00 00 00 00
   78.642627 1  7DF             Rx   d 8 02 01 0C 55 55 55 55 55
   78.655682 1  7E8             Rx   d 8 04 41 0C 0E B2 00 00 00
   78.824282 1  7DF             Rx   d 8 02 01 0D 55 55 55 55 55
   78.836585 1  7E8             Rx   d 8 03 41 0D 00 00 00 00 00
   79.003853 1  7DF             Rx   d 8 02 01 05 55 55 55 55 55
   79.006062 1  7E8             Rx   d 8 03 41 05 58 00 00 00 00
   79.174429 1  7DF             Rx   d 8 02 01 0C 55 55 55 55 55
   79.187663 1  7E8             Rx   d 8 04 41 0C 0E D2 00 00 00
   79.357456 1  7DF             Rx   d 8 02 01 0D 55 55 55 55 55
   79.359072 1  7E8             Rx   d 8 03 41 0D 00 00 00 00 00
   79.527377 1  7DF             Rx   d 8 02 01 05 55 55 55 55 55
   79.542902 1  7E8             Rx   d 8 03 41 05 58 00 00 00 00
   79.709798 1  7DF             Rx   d 8 02 01 0C 55 55 55 55 55
   79.724777 1  7E8             Rx   d 8 04 41 0C 0E A2 00 00 00
   79.891425 1  7DF             Rx   d 8 02 01 0D 55 55 55 55 55
   79.893999 1  7E8             Rx   d 8 03 41 0D 00 00 00 00 00
   80.061693 1  7DF             Rx   d 8 02 01 05 55 55 55 55 55
   80.064177 1  7E8             Rx   d 8 03 41 05 58 00 00 00 00
   80.233049 1  7DF             Rx   d 8 02 01 0C 55 55 55 55 55
   80.245086 1  7E8             Rx   d 8 04 41 0C 0E 97 00 00 00
   80.415038 1  7DF             Rx   d 8 02 01 0D 55 55 55 55 55
   80.425329 1  7E8             Rx   d 8 03 41 0D 00 00 00 00 00
   80.597376 1  7DF             Rx   d 8 02 01 05 55 55 55 55 55
   80.610420 1  7E8             Rx   d 8 03 41 05 58 00 00 00 00
   80.777641 1  7DF             Rx   d 8 02 01 0C 55 55 55 55 55
   80.782760 1  7E8             Rx   d 8 04 41 0C 0E B7 00 00 00
   80.950836 1  7DF             Rx   d 8 02 01 0D 55 55 55 55 55
   80.964299 1  7E8             Rx   d 8 03 41 0D 00 00 00 00 00
   81.134053 1  7DF             Rx   d 8 02 01 05 55 55 55 55 55
   81.145160 1  7E8             Rx   d 8 03 41 05 58 00 00 00 00
   81.314501 1  7DF             Rx   d 8 02 01 0C 55 55 55 55 55
   81.325547 1  7E8             Rx   d 8 04 41 0C 0E B2 00 00 00
   81.491651 1  7DF             Rx   d 8 02 01 0D 55 55 55 55 55
   81.494544 1  7E8             Rx   d 8 03 41 0D 00 00 00 00 00
   81.664562 1  7DF             Rx   d 8 02 01 05 55 55 55 55 55
   81.683996 1  7E8             Rx   d 8 03 41 05 58 00 00 00 00
   81.852175 1  7DF             Rx   d 8 02 01 0C 55 55 55 55 55
   81.864671 1  7E8             Rx   d 8 04 41 0C 0E BD 00 00 00
   82.034554 1  7DF             Rx   d 8 02 01 0D 55 55 55 55 55
   82.045343 1  7E8             Rx   d 8 03 41 0D 00 00 00 00 00
   82.216586 1  7DF             Rx   d 8 02 01 05 55 55 55 55 55
   82.233678 1  7E8             Rx   d 8 03 41 05 58 00 00 00 00
   82.403897 1  7DF             Rx   d 8 02 01 0C 55 55 55 55 55
   82.413758 1  7E8             Rx   d 8 04 41 0C 0E 9D 00 00 00
   82.581588 1  7DF             Rx   d 8 02 01 0D 55 55 55 55 55
   82.584098 1  7E8             Rx   d 8 03 41 0D 00 00 00 00 00
   82.750692 1  7DF             Rx   d 8 02 01 05 55 55 55 55 55
   82.752500 1  7E8             Rx   d 8 03 41 05 58 00 00 00 00
   82.919633 1  7DF             Rx   d 8 02 01 0C 55 55 55 55 55
   82.934187 1  7E8             Rx   d 8 04 41 0C 0E 9E 00 00 00
   83.101246 1  7DF             Rx   d 8 02 01 0D 55 55 55 55 55
   83.102698 1  7E8             Rx   d 8 03 41 0D 00 00 00 00 00
   83.272066 1  7DF             Rx   d 8 02 01 05 55 55 55 55 55
   83.285153 1  7E8             Rx   d 8 03 41 05 59 00 00 00 00
   83.453377 1  7DF             Rx   d 8 02 01 0C 55 55 55 55 55
   83.464948 1  7E8             Rx   d 8 04 41 0C 0E B8 00 00 00
   83.636766 1  7DF             Rx   d 8 02 01 0D 55 55 55 55 55
   83.653796 1  7E8             Rx   d 8 03 41 0D 00 00 00 00 00
   83.823714 1  7DF             Rx   d 8 02 01 05 55 55 55 55 55
   83.834367 1  7E8             Rx   d 8 03 41 05 59 00 00 00 00
   84.004660 1  7DF             Rx   d 8 02 01 0C 55 55 55 55 55
   84.015030 1  7E8             Rx   d 8 04 41 0C 0E 9C 00 00 00
   84.182365 1  7DF             Rx   d 8 02 01 0D 55 55 55 55 55
   84.185386 1  7E8             Rx   d 8 03 41 0D 00 00 00 00 00
   84.354836 1  7DF             Rx   d 8 02 01 05 55 55 55 55 55
   84.365137 1  7E8             Rx   d 8 03 41 05 59 00 00 00 00
   84.531168 1  7DF             Rx   d 8 02 01 0C 55 55 55 55 55
   84.534785 1  7E8             Rx   d 8 04 41 0C 0E BB 00 00 00
   84.703330 1  7DF             Rx   d 8 02 01 0D 55 55 55 55 55
   84.715105 1  7E8             Rx   d 8 03 41 0D 00 00 00 00 00
   84.883511 1  7DF             Rx   d 8 02 01 05 55 55 55 55 55
   84.903561 1  7E8             Rx   d 8 03 41 05 59 00 00 00 00
   85.070947 1  7DF             Rx   d 8 02 01 0C 55 55 55 55 55
   85.074278 1  7E8             Rx   d 8 04 41 0C 0E C1 00 00 00
   85.241607 1  7DF             Rx   d 8 02 01 0D 55 55 55 55 55
   85.254930 1  7E8             Rx   d 8 03 41 0D 00 00 00 00 00
   85.425233 1  7DF             Rx   d 8 02 01 05 55 55 55 55 55
   85.435058 1  7E8             Rx   d 8 03 41 05 59 00 00 00 00
   85.606801 1  7DF             Rx   d 8 02 01 0C 55 55 55 55 55
   85.615321 1  7E8             Rx   d 8 04 41 0C 0E 8A 00 00 00
   85.784337 1  7DF             Rx   d 8 02 01 0D 55 55 55 55 55
   85.803521 1  7E8             Rx   d 8 03 41 0D 00 00 00 00 00
   85.972310 1  7DF             Rx   d 8 02 01 05 55 55 55 55 55
   85.985379 1  7E8             Rx   d 8 03 41 05 59 00 00 00 00
   86.151636 1  7DF             Rx   d 8 02 01 0C 55 55 55 55 55
   86.154557 1  7E8             Rx   d 8 04 41 0C 0E BB 00 00 00
   86.321055 1  7DF             Rx   d 8 02 01 0D 55 55 55 55 55
   86.322357 1  7E8             Rx   d 8 03 41 0D 00 00 00 00 00
   86.489500 1  7DF             Rx   d 8 02 01 05 55 55 55 55 55
   86.490823 1  7E8             Rx   d 8 03 41 05 59 00 00 00 00
   86.661755 1  7DF             Rx   d 8 02 01 0C 55 55 55 55 55
   86.674300 1  7E8             Rx   d 8 04 41 0C 0E A3 00 00 00
   86.843983 1  7DF             Rx   d 8 02 01 0D 55 55 55 55 55
   86.854799 1  7E8             Rx   d 8 03 41 0D 00 00 00 00 00
   87.022699 1  7DF             Rx   d 8 02 01 05 55 55 55 55 55
   87.042396 1  7E8             Rx   d 8 03 41 05 59 00 00 00 00
   87.213283 1  7DF             Rx   d 8 02 01 0C 55 55 55 55 55
   87.223297 1  7E8             Rx   d 8 04 41 0C 0E 91 00 00 00
   87.394869 1  7DF             Rx   d 8 02 01 0D 55 55 55 55 55
   87.403907 1  7E8             Rx   d 8 03 41 0D 00 00 00 00 00
   87.572750 1  7DF             Rx   d 8 02 01 05 55 55 55 55 55
   87.585512 1  7E8             Rx   d 8 03 41 05 59 00 00 00 00
   87.756311 1  7DF             Rx   d 8 02 01 0C 55 55 55 55 55
   87.758404 1  7E8             Rx   d 8 04 41 0C 0E A9 00 00 00
   87.927873 1  7DF             Rx   d 8 02 01 0D 55 55 55 55 55
   87.942526 1  7E8             Rx   d 8 03 41 0D 00 00 00 00 00
   88.114357 1  7DF             Rx   d 8 02 01 05 55 55 55 55 55
   88.123819 1  7E8             Rx   d 8 03 41 05 59 00 00 00 00
   88.290561 1  7DF             Rx   d 8 02 01 0C 55 55 55 55 55
   88.292565 1  7E8             Rx   d 8 04 41 0C 0E 97 00 00 00
   88.463745 1  7DF             Rx   d 8 02 01 0D 55 55 55 55 55
   88.474264 1  7E8             Rx   d 8 03 41 0D 00 00 00 00 00
   88.642365 1  7DF             Rx   d 8 02 01 05 55 55 55 55 55
   88.657778 1  7E8             Rx   d 8 03 41 05 59 00 00 00 00
   88.828351 1  7DF             Rx   d 8 02 01 0C 55 55 55 55 55
   88.842614 1  7E8             Rx   d 8 04 41 0C 0E 8E 00 00 00
   89.014556 1  7DF             Rx   d 8 02 01 0D 55 55 55 55 55
   89.023929 1  7E8             Rx   d 8 03 41 0D 00 00 00 00 00
   89.190893 1  7DF             Rx   d 8 02 01 05 55 55 55 55 55
   89.193516 1  7E8             Rx   d 8 03 41 05 59 00 00 00 00
   89.364177 1  7DF             Rx   d 8 02 01 0C 55 55 55 55 55
   89.374310 1  7E8             Rx   d 8 04 41 0C 0E A2 00 00 00
End TriggerBlock
